!CSV A.01.01
!Agilent Technologies,E8361C,US49010277,A.09.20.08
!Agilent E8361C: A.09.20.08
!Date: Thursday, May 03, 2012 14:00:41
!Source: Standard

BEGIN CH1_DATA
Freq(Hz),S22(REAL),S22(IMAG)
10000000,-0.49585691,0.00017914317
122475000,-0.51239043,-0.0086119082
234950000,-0.50465035,-0.006842379
347425000,-0.50661266,-0.011803503
459900000,-0.51876277,-0.01569779
572375000,-0.51567417,-0.0083385147
684850000,-0.51638222,-0.016609769
797325000,-0.51393318,-0.0081449142
909800000,-0.52447319,-0.0113995
1022275000,-0.51416016,-0.014201793
1134750000,-0.529836,-0.016326152
1247225000,-0.52473849,-0.017425261
1359700000,-0.52778774,-0.02212959
1472175000,-0.54785353,-0.011991777
1584650000,-0.53870076,-0.011344022
1697125000,-0.54055071,-0.0055109835
1809600000,-0.5467959,-0.0048318366
1922075000,-0.53842956,-0.0022544486
2034550000,-0.54225069,0.0015446198
2147025000,-0.54528397,0.0010423377
2259500000,-0.53446549,0.0011157941
2371975000,-0.54688889,0.0027349964
2484450000,-0.54466504,0.0038620206
2596925000,-0.53811073,0.0039291065
2709400000,-0.55052328,0.0053232126
2821875000,-0.54240888,0.006776216
2934350000,-0.54562491,0.0093759345
3046825000,-0.54688627,0.0098122861
3159300000,-0.55276817,0.0085190022
3271775000,-0.5441283,0.01196014
3384250000,-0.55505401,0.014573223
3496725000,-0.55603176,0.017036488
3609200000,-0.54694492,0.022216748
3721675000,-0.55215561,0.024830142
3834150000,-0.54819775,0.024404319
3946625000,-0.54195732,0.023020072
4059100000,-0.54468811,0.024958327
4171575000,-0.5459525,0.026725557
4284050000,-0.55216795,0.027266582
4396525000,-0.54129755,0.025337782
4509000000,-0.55127823,0.026186839
4621475000,-0.54442507,0.026030282
4733950000,-0.55451417,0.029303683
4846425000,-0.55281395,0.030343169
4958900000,-0.54641622,0.030943049
5071375000,-0.54859167,0.032617822
5183850000,-0.55118126,0.033120234
5296325000,-0.55794072,0.035164583
5408800000,-0.55064565,0.035338722
5521275000,-0.55625701,0.038635366
5633750000,-0.56069535,0.042788655
5746225000,-0.54950774,0.043770425
5858700000,-0.55701536,0.04670354
5971175000,-0.55793136,0.048665915
6083650000,-0.55347723,0.049513444
6196125000,-0.54788411,0.049238447
6308600000,-0.55622053,0.051514089
6421075000,-0.55084634,0.052817672
6533550000,-0.54889274,0.053219914
6646025000,-0.55708319,0.055291425
6758500000,-0.54836261,0.054170113
6870975000,-0.54960847,0.054233853
6983450000,-0.55753154,0.056241721
7095925000,-0.54962701,0.054598711
7208400000,-0.55630058,0.056834161
7320875000,-0.56173629,0.059575919
7433350000,-0.5523594,0.059365503
7545825000,-0.55879623,0.063366003
7658300000,-0.56309468,0.066080049
7770775000,-0.56107152,0.068047136
7883250000,-0.5579294,0.070265636
7995725000,-0.55439132,0.070902161
8108200000,-0.56265825,0.074418336
8220675000,-0.55375832,0.0751132
8333150000,-0.55324978,0.076486491
8445625000,-0.55961066,0.079352483
8558100000,-0.55125141,0.079192802
8670575000,-0.55430061,0.08096534
8783050000,-0.55913705,0.083321556
8895525000,-0.54847187,0.082086064
9008000000,-0.55394077,0.08436159
9120475000,-0.55944687,0.087756574
9232950000,-0.54882157,0.087163165
9345425000,-0.55661243,0.090447985
9457900000,-0.55738699,0.09257146
9570375000,-0.54701501,0.090984955
9682850000,-0.55684817,0.094343454
9795325000,-0.55492204,0.095333703
9907800000,-0.5485943,0.095879845
10020275000,-0.54827958,0.097477071
10132750000,-0.54959512,0.098127767
10245225000,-0.55700457,0.10080261
10357700000,-0.54783487,0.09971682
10470175000,-0.55235648,0.10219695
10582650000,-0.5564003,0.10539271
10695125000,-0.54610884,0.10381684
10807600000,-0.55256724,0.10638198
10920075000,-0.55581188,0.10886766
11032550000,-0.54640073,0.10849627
11145025000,-0.55188525,0.1123955
11257500000,-0.55257875,0.11465091
11369975000,-0.5446068,0.11314416
11482450000,-0.55001926,0.11583552
11594925000,-0.54953551,0.11737965
11707400000,-0.544505,0.11596201
11819875000,-0.55323696,0.11975411
11932350000,-0.54823792,0.1195269
12044825000,-0.54565489,0.12132698
12157300000,-0.54867595,0.12424465
12269775000,-0.55265957,0.1282011
12382250000,-0.54165715,0.12565438
12494725000,-0.54896384,0.12928098
12607200000,-0.55089718,0.13147074
12719675000,-0.54227358,0.13001712
12832150000,-0.54214847,0.13214321
12944625000,-0.54632521,0.1350558
13057100000,-0.55038738,0.1388361
13169575000,-0.53967017,0.1380026
13282050000,-0.54482728,0.14158554
13394525000,-0.54636931,0.1446535
13507000000,-0.53591961,0.14373267
13619475000,-0.54324144,0.14648348
13731950000,-0.54139763,0.14674829
13844425000,-0.53429222,0.14581069
13956900000,-0.54181772,0.14925386
14069375000,-0.53778625,0.14923701
14181850000,-0.53427279,0.14907305
14294325000,-0.5422653,0.15342058
14406800000,-0.53478372,0.15170456
14519275000,-0.53501952,0.15216029
14631750000,-0.54212791,0.15599625
14744225000,-0.53461987,0.15593562
14856700000,-0.53610957,0.1592216
14969175000,-0.53945369,0.1634151
15081650000,-0.52883708,0.16098438
15194125000,-0.53179586,0.16284765
15306600000,-0.53572315,0.1659288
15419075000,-0.53461665,0.166357
15531550000,-0.52688795,0.16345805
15644025000,-0.52890676,0.16458783
15756500000,-0.53604376,0.16940665
15868975000,-0.52631897,0.16758841
15981450000,-0.53023762,0.17100234
16093925000,-0.52648681,0.17104182
16206400000,-0.53392458,0.17719656
16318875000,-0.52875155,0.17970526
16431350000,-0.52162874,0.17879383
16543825000,-0.52584368,0.1815061
16656300000,-0.52140868,0.18001255
16768775000,-0.52092767,0.18010437
16881250000,-0.52724886,0.18494092
16993725000,-0.5191285,0.18358101
17106200000,-0.51810122,0.18385281
17218675000,-0.52423441,0.18717395
17331150000,-0.51702487,0.18435985
17443625000,-0.51991951,0.18759716
17556100000,-0.52339983,0.19128926
17668575000,-0.51421869,0.18691826
17781050000,-0.52011633,0.19160891
17893525000,-0.52181381,0.19395703
18006000000,-0.51362324,0.19152038
18118475000,-0.51766843,0.19710602
18230950000,-0.51765668,0.20005217
18343425000,-0.51055712,0.19760299
18455900000,-0.51649016,0.20327885
18568375000,-0.51212931,0.2033713
18680850000,-0.50706863,0.20190907
18793325000,-0.51188284,0.20638843
18905800000,-0.50610608,0.20547453
19018275000,-0.50512588,0.2046717
19130750000,-0.51112151,0.2093479
19243225000,-0.50457364,0.20687455
19355700000,-0.5059852,0.20935217
19468175000,-0.51055413,0.21468207
19580650000,-0.50134134,0.21223725
19693125000,-0.5048719,0.2166542
19805600000,-0.50586677,0.22044705
19918075000,-0.49536422,0.21627519
20030550000,-0.4955892,0.21883807
20143025000,-0.49485576,0.21713158
20255500000,-0.49967971,0.22059657
20367975000,-0.493146,0.21780773
20480450000,-0.49527586,0.22093533
20592925000,-0.49721271,0.22485891
20705400000,-0.48826158,0.22089629
20817875000,-0.48921192,0.22249974
20930350000,-0.49158195,0.22545139
21042825000,-0.48495042,0.21955676
21155300000,-0.49137366,0.22245708
21267775000,-0.49301779,0.22678334
21380250000,-0.48825029,0.22528017
21492725000,-0.49354073,0.23169023
21605200000,-0.4887363,0.23463176
21717675000,-0.48413417,0.23223552
21830150000,-0.48776123,0.23680924
21942625000,-0.48113561,0.2359613
22055100000,-0.48196495,0.23484163
22167575000,-0.48520362,0.23749295
22280050000,-0.48091966,0.23547468
22392525000,-0.48296049,0.23712631
22505000000,-0.48525414,0.24103354
22617475000,-0.47935042,0.23995692
22729950000,-0.48065627,0.24271591
22842425000,-0.48170155,0.24621984
22954900000,-0.4753693,0.24424686
23067375000,-0.47738633,0.24786642
23179850000,-0.4766131,0.25030261
23292325000,-0.46904197,0.24643929
23404800000,-0.47210416,0.25056449
23517275000,-0.47157744,0.25141934
23629750000,-0.46681598,0.24732302
23742225000,-0.47166505,0.25272736
23854700000,-0.47004259,0.25478026
23967175000,-0.46567169,0.25411633
24079650000,-0.46302509,0.25621477
24192125000,-0.46565127,0.2596314
24304600000,-0.45966586,0.25867882
24417075000,-0.45767567,0.25815514
24529550000,-0.45873478,0.2585772
24642025000,-0.45522386,0.25337636
24754500000,-0.46092764,0.25622073
24866975000,-0.46434456,0.26050842
24979450000,-0.4578402,0.26085049
25091925000,-0.45956573,0.26682088
25204400000,-0.45824262,0.26902762
25316875000,-0.44876945,0.2659539
25429350000,-0.45141625,0.2685748
25541825000,-0.44995442,0.26910549
25654300000,-0.44926971,0.26900828
25766775000,-0.44243282,0.26319313
25879250000,-0.44633254,0.26502514
25991725000,-0.44962585,0.26736212
26104200000,-0.44476137,0.26484418
26216675000,-0.44775,0.27010584
26329150000,-0.44834059,0.27369589
26441625000,-0.44159037,0.27196869
26554100000,-0.44308573,0.27689356
26666575000,-0.44087735,0.27681884
26779050000,-0.43567151,0.27404681
26891525000,-0.4377661,0.27828127
27004000000,-0.43496102,0.27696544
27116475000,-0.43161204,0.27429923
27228950000,-0.43427011,0.27667376
27341425000,-0.43219495,0.27508911
27453900000,-0.43211165,0.27562037
27566375000,-0.43400159,0.27927905
27678850000,-0.42852619,0.27815008
27791325000,-0.42933109,0.28018302
27903800000,-0.43042991,0.28280893
28016275000,-0.42318642,0.27988037
28128750000,-0.42548382,0.28284654
28241225000,-0.42711926,0.28382367
28353700000,-0.42029834,0.28037035
28466175000,-0.424382,0.2836597
28578650000,-0.42585623,0.28583366
28691125000,-0.41929835,0.28461203
28803600000,-0.42244995,0.28859982
28916075000,-0.42008686,0.28802177
29028550000,-0.41448927,0.28726292
29141025000,-0.41763303,0.29059455
29253500000,-0.41379204,0.2895129
29365975000,-0.41015267,0.28849506
29478450000,-0.41388613,0.29057628
29590925000,-0.40907499,0.28874925
29703400000,-0.4080762,0.28922278
29815875000,-0.41081601,0.29100379
29928350000,-0.40543792,0.2891311
30040825000,-0.40983233,0.29254916
30153300000,-0.40408364,0.2902244
30265775000,-0.40597358,0.29498184
30378250000,-0.40522355,0.29640087
30490725000,-0.39865324,0.29285669
30603200000,-0.40017712,0.29594499
30715675000,-0.39992842,0.29518339
30828150000,-0.39647517,0.29297632
30940625000,-0.40000483,0.29739308
31053100000,-0.39736265,0.29546621
31165575000,-0.39390188,0.294844
31278050000,-0.39675182,0.29910836
31390525000,-0.39263088,0.29649457
31503000000,-0.39123848,0.29708746
31615475000,-0.39366224,0.2996791
31727950000,-0.38819078,0.29567149
31840425000,-0.38840851,0.29796073
31952900000,-0.39163965,0.30109617
32065375000,-0.38821527,0.29921746
32177850000,-0.38583604,0.30164039
32290325000,-0.3821452,0.30053064
32402800000,-0.38398072,0.30022886
32515275000,-0.38084006,0.30023783
32627750000,-0.3793765,0.30023167
32740225000,-0.38171574,0.30075157
32852700000,-0.37733895,0.30037582
32965175000,-0.37631202,0.30089441
33077650000,-0.3797738,0.30248669
33190125000,-0.37409422,0.29994971
33302600000,-0.37369636,0.30123559
33415075000,-0.37761891,0.30323359
33527550000,-0.37342834,0.2989752
33640025000,-0.37270254,0.30140954
33752500000,-0.3766464,0.30410418
33864975000,-0.37134659,0.29990345
33977450000,-0.37039909,0.30267569
34089925000,-0.37429023,0.30623031
34202400000,-0.36997557,0.3015835
34314875000,-0.36881283,0.30436969
34427350000,-0.37025973,0.30753925
34539825000,-0.36593774,0.30336013
34652300000,-0.36576676,0.30604067
34764775000,-0.36445743,0.30752745
34877250000,-0.36191401,0.30406836
34989725000,-0.36321458,0.30495954
35102200000,-0.36145294,0.30501702
35214675000,-0.35976627,0.30448502
35327150000,-0.36352968,0.30677679
35439625000,-0.35845929,0.30557033
35552100000,-0.35809612,0.30704263
35664575000,-0.3615689,0.30945811
35777050000,-0.35463861,0.3076978
35889525000,-0.35410288,0.31013528
36002000000,-0.35493237,0.30983502
36114475000,-0.352842,0.30860192
36226950000,-0.3482331,0.30788958
36339425000,-0.35372609,0.30789223
36451900000,-0.3514241,0.30691487
36564375000,-0.35029021,0.30808905
36676850000,-0.35453364,0.30823359
36789325000,-0.34941727,0.30856737
36901800000,-0.35008451,0.31046399
37014275000,-0.3523514,0.30997348
37126750000,-0.34517846,0.30981514
37239225000,-0.34697309,0.30992371
37351700000,-0.34988454,0.30834654
37464175000,-0.34334636,0.30854052
37576650000,-0.34837267,0.31047374
37689125000,-0.34960526,0.31036478
37801600000,-0.3437919,0.31058061
37914075000,-0.3459897,0.31306168
38026550000,-0.34661394,0.31379771
38139025000,-0.34063736,0.31237885
38251500000,-0.34180713,0.31415558
38363975000,-0.3420617,0.3158679
38476450000,-0.33921418,0.31303495
38588925000,-0.33830118,0.31460035
38701400000,-0.33825493,0.31797308
38813875000,-0.33863801,0.31380939
38926350000,-0.33831146,0.31486991
39038825000,-0.33577716,0.31788269
39151300000,-0.33925134,0.31579289
39263775000,-0.33909306,0.31701475
39376250000,-0.33456418,0.32083198
39488725000,-0.33850208,0.31993181
39601200000,-0.33714432,0.32001385
39713675000,-0.33110639,0.3217262
39826150000,-0.33496195,0.32011345
39938625000,-0.33379507,0.32060423
40051100000,-0.33411965,0.32189977
40163575000,-0.32994127,0.31949013
40276050000,-0.33134708,0.32074159
40388525000,-0.33427176,0.3230544
40501000000,-0.32875958,0.32248917
40613475000,-0.33156103,0.32502761
40725950000,-0.33137244,0.32485184
40838425000,-0.32355306,0.32467178
40950900000,-0.32960284,0.32645273
41063375000,-0.32840171,0.32453978
41175850000,-0.32126632,0.32491896
41288325000,-0.32707256,0.32574153
41400800000,-0.3249183,0.32441312
41513275000,-0.32101849,0.32629171
41625750000,-0.32749414,0.32767236
41738225000,-0.32180366,0.3267552
41850700000,-0.32022688,0.33038139
41963175000,-0.32574067,0.33107078
42075650000,-0.31778041,0.33011219
42188125000,-0.31839392,0.33303794
42300600000,-0.32251039,0.33168933
42413075000,-0.31476435,0.33087039
42525550000,-0.31791717,0.33376291
42638025000,-0.32144469,0.33310589
42750500000,-0.31416172,0.33210051
42862975000,-0.31807837,0.33494598
42975450000,-0.31939715,0.33627966
43087925000,-0.31311974,0.3347612
43200400000,-0.316089,0.33669239
43312875000,-0.31424296,0.33931172
43425350000,-0.3103027,0.33702713
43537825000,-0.31159538,0.33728972
43650300000,-0.309818,0.34198073
43762775000,-0.30961031,0.33863848
43875250000,-0.30828589,0.33764961
43987725000,-0.30362704,0.34346569
44100200000,-0.30771139,0.3419838
44212675000,-0.30623809,0.34115225
44325150000,-0.29850769,0.34784612
44437625000,-0.30577835,0.34612545
44550100000,-0.30334401,0.3433415
44662575000,-0.29502422,0.34868333
44775050000,-0.30471808,0.34920847
44887525000,-0.29428104,0.34334901
45000000000,-0.29625478,0.35022119
END

